1



                                 *********************************************

                                    NUMERICAL ELECTROMAGNETICS CODE (NEC-2D)

                                 *********************************************




                                     - - - - COMMENTS - - - -


                          Dipole in free space with insulation                                       
                                                                                                     
                                                                                                     
                                                                                                     
                                                                                                     
                                                                                                     




                                 - - - STRUCTURE SPECIFICATION - - -

                                     COORDINATES MUST BE INPUT IN
                                     METERS OR BE SCALED TO METERS
                                     BEFORE STRUCTURE INPUT IS ENDED


  WIRE                                                                               NO. OF    FIRST  LAST     TAG
  NO.        X1         Y1         Z1          X2         Y2         Z2      RADIUS   SEG.     SEG.   SEG.     NO.
     1   -0.06246    0.00000    0.00000     0.06246    0.00000    0.00000    0.01270     21        1    21       1

   TOTAL SEGMENTS USED=   21     NO. SEG. IN A SYMMETRIC CELL=   21     SYMMETRY FLAG=  0


         - MULTIPLE WIRE JUNCTIONS -
 JUNCTION    SEGMENTS  (- FOR END 1, + FOR END 2)
  NONE




                                 - - - - SEGMENTATION DATA - - - -

                                        COORDINATES IN METERS

                         I+ AND I- INDICATE THE SEGMENTS BEFORE AND AFTER I


  SEG.   COORDINATES OF SEG. CENTER     SEG.     ORIENTATION ANGLES    WIRE    CONNECTION DATA   TAG
  NO.       X         Y         Z       LENGTH     ALPHA     BETA      RADIUS    I-   I    I+    NO.
     1  -0.05948   0.00000   0.00000   0.00595    0.00000   0.00000   0.01270     0    1    2      1
     2  -0.05354   0.00000   0.00000   0.00595    0.00000   0.00000   0.01270     1    2    3      1
     3  -0.04759   0.00000   0.00000   0.00595    0.00000   0.00000   0.01270     2    3    4      1
     4  -0.04164   0.00000   0.00000   0.00595    0.00000   0.00000   0.01270     3    4    5      1
     5  -0.03569   0.00000   0.00000   0.00595    0.00000   0.00000   0.01270     4    5    6      1
     6  -0.02974   0.00000   0.00000   0.00595    0.00000   0.00000   0.01270     5    6    7      1
     7  -0.02379   0.00000   0.00000   0.00595    0.00000   0.00000   0.01270     6    7    8      1
     8  -0.01785   0.00000   0.00000   0.00595    0.00000   0.00000   0.01270     7    8    9      1
     9  -0.01190   0.00000   0.00000   0.00595    0.00000   0.00000   0.01270     8    9   10      1
    10  -0.00595   0.00000   0.00000   0.00595    0.00000   0.00000   0.01270     9   10   11      1
    11   0.00000   0.00000   0.00000   0.00595    0.00000   0.00000   0.01270    10   11   12      1
    12   0.00595   0.00000   0.00000   0.00595    0.00000   0.00000   0.01270    11   12   13      1
    13   0.01190   0.00000   0.00000   0.00595    0.00000   0.00000   0.01270    12   13   14      1
    14   0.01785   0.00000   0.00000   0.00595    0.00000   0.00000   0.01270    13   14   15      1
    15   0.02379   0.00000   0.00000   0.00595    0.00000   0.00000   0.01270    14   15   16      1
    16   0.02974   0.00000   0.00000   0.00595    0.00000   0.00000   0.01270    15   16   17      1
    17   0.03569   0.00000   0.00000   0.00595    0.00000   0.00000   0.01270    16   17   18      1
    18   0.04164   0.00000   0.00000   0.00595    0.00000   0.00000   0.01270    17   18   19      1
    19   0.04759   0.00000   0.00000   0.00595    0.00000   0.00000   0.01270    18   19   20      1
    20   0.05354   0.00000   0.00000   0.00595    0.00000   0.00000   0.01270    19   20   21      1
    21   0.05948   0.00000   0.00000   0.00595    0.00000   0.00000   0.01270    20   21    0      1






 ***** DATA CARD NO.  1   LD   5     1     0     0  2.50000E+06  0.00000E+00  0.00000E+00  0.00000E+00  0.00000E+00  0.00000E+00
 ***** DATA CARD NO.  2   LD   2     1     0     0  0.00000E+00  0.00000E+00  0.00000E+00  0.00000E+00  0.00000E+00  0.00000E+00
 ***** DATA CARD NO.  3   GN  -1     0     0     0  0.00000E+00  0.00000E+00  0.00000E+00  0.00000E+00  0.00000E+00  0.00000E+00
 ***** DATA CARD NO.  4   EK   0     0     0     0  0.00000E+00  0.00000E+00  0.00000E+00  0.00000E+00  0.00000E+00  0.00000E+00
 ***** DATA CARD NO.  5   EX   0     1    11     0  1.00000E+00  0.00000E+00  0.00000E+00  0.00000E+00  0.00000E+00  0.00000E+00
 ***** DATA CARD NO.  6   FR   0     0     0     0  6.00000E+02  0.00000E+00  0.00000E+00  0.00000E+00  0.00000E+00  0.00000E+00
 ***** DATA CARD NO.  7   RP   0    37    73  1003 -1.80000E+02  0.00000E+00  5.00000E+00  5.00000E+00  0.00000E+00  0.00000E+00




                                 - - - - - - FREQUENCY - - - - - -

                                    FREQUENCY= 6.0000E+02 MHZ
                                    WAVELENGTH= 4.9967E-01 METERS




                    APPROXIMATE INTEGRATION EMPLOYED FOR SEGMENTS MORE THAN   1.000 WAVELENGTHS APART

                    THE EXTENDED THIN WIRE KERNEL WILL BE USED



                               - - - STRUCTURE IMPEDANCE LOADING - - -


       LOCATION          RESISTANCE   INDUCTANCE  CAPACITANCE       IMPEDANCE (OHMS)     CONDUCTIVITY    TYPE
    ITAG FROM THRU          OHMS        HENRYS       FARADS        REAL      IMAGINARY    MHOS/METER

       1                                                                                 2.5000E+06     WIRE  

       1                                                                                               SERIES (PER METER) 

          NOTE, SOME OF THE ABOVE SEGMENTS HAVE BEEN LOADED TWICE - IMPEDANCES ADDED



                                  - - - ANTENNA ENVIRONMENT - - -

                                            FREE SPACE



                                - - - MATRIX TIMING - - -

                        FILL=    0.000 SEC.,  FACTOR=    0.000 SEC.



                                          - - - ANTENNA INPUT PARAMETERS - - -

   TAG   SEG.    VOLTAGE (VOLTS)         CURRENT (AMPS)         IMPEDANCE (OHMS)        ADMITTANCE (MHOS)      POWER
   NO.   NO.    REAL        IMAG.       REAL        IMAG.       REAL        IMAG.       REAL        IMAG.     (WATTS)
     1    11 1.00000E+00 0.00000E+00 1.67036E-03 1.65090E-02 6.06659E+00-5.99592E+01 1.67036E-03 1.65090E-02 8.35179E-04



                             - - - CURRENTS AND LOCATION - - -

                                 DISTANCES IN WAVELENGTHS


  SEG.  TAG    COORD. OF SEG. CENTER     SEG.            - - - CURRENT (AMPS) - - -
  NO.   NO.     X        Y        Z      LENGTH     REAL        IMAG.       MAG.        PHASE
     1    1  -0.1190   0.0000   0.0000  0.01190   7.9381E-04  2.6189E-03  2.7366E-03   73.138
     2    1  -0.1071   0.0000   0.0000  0.01190   8.0399E-04  2.7669E-03  2.8813E-03   73.797
     3    1  -0.0952   0.0000   0.0000  0.01190   1.0749E-03  3.8151E-03  3.9636E-03   74.265
     4    1  -0.0833   0.0000   0.0000  0.01190   1.1902E-03  4.3567E-03  4.5164E-03   74.720
     5    1  -0.0714   0.0000   0.0000  0.01190   1.3353E-03  5.1536E-03  5.3238E-03   75.474
     6    1  -0.0595   0.0000   0.0000  0.01190   1.4329E-03  5.6006E-03  5.7810E-03   75.649
     7    1  -0.0476   0.0000   0.0000  0.01190   1.5217E-03  6.6307E-03  6.8031E-03   77.075
     8    1  -0.0357   0.0000   0.0000  0.01190   1.5856E-03  6.4861E-03  6.6771E-03   76.263
     9    1  -0.0238   0.0000   0.0000  0.01190   1.6332E-03  9.0351E-03  9.1815E-03   79.754
    10    1  -0.0119   0.0000   0.0000  0.01190   1.6605E-03  6.0249E-03  6.2496E-03   74.591
    11    1   0.0000   0.0000   0.0000  0.01190   1.6704E-03  1.6509E-02  1.6593E-02   84.223
    12    1   0.0119   0.0000   0.0000  0.01190   1.6605E-03  6.0249E-03  6.2496E-03   74.591
    13    1   0.0238   0.0000   0.0000  0.01190   1.6332E-03  9.0351E-03  9.1815E-03   79.754
    14    1   0.0357   0.0000   0.0000  0.01190   1.5856E-03  6.4861E-03  6.6771E-03   76.263
    15    1   0.0476   0.0000   0.0000  0.01190   1.5217E-03  6.6307E-03  6.8031E-03   77.075
    16    1   0.0595   0.0000   0.0000  0.01190   1.4329E-03  5.6006E-03  5.7810E-03   75.649
    17    1   0.0714   0.0000   0.0000  0.01190   1.3353E-03  5.1536E-03  5.3238E-03   75.474
    18    1   0.0833   0.0000   0.0000  0.01190   1.1902E-03  4.3567E-03  4.5164E-03   74.720
    19    1   0.0952   0.0000   0.0000  0.01190   1.0749E-03  3.8151E-03  3.9636E-03   74.265
    20    1   0.1071   0.0000   0.0000  0.01190   8.0399E-04  2.7669E-03  2.8813E-03   73.797
    21    1   0.1190   0.0000   0.0000  0.01190   7.9381E-04  2.6189E-03  2.7366E-03   73.138



                                        - - - POWER BUDGET - - -

                                           INPUT POWER   = 8.3518E-04 WATTS
                                           RADIATED POWER= 8.3411E-04 WATTS
                                           STRUCTURE LOSS= 1.0686E-06 WATTS
                                           NETWORK LOSS  = 0.0000E+00 WATTS
                                           EFFICIENCY    =  99.87 PERCENT



                                                - - - RADIATION PATTERNS - - -

  - - ANGLES - -           - POWER GAINS -       - - - POLARIZATION - - -    - - - E(THETA) - - -    - - - E(PHI) - - -
  THETA     PHI        VERT.   HOR.    TOTAL      AXIAL     TILT   SENSE     MAGNITUDE    PHASE      MAGNITUDE    PHASE 
 DEGREES  DEGREES       DB      DB      DB        RATIO     DEG.              VOLTS/M    DEGREES      VOLTS/M    DEGREES
 -180.00     0.00       1.92 -999.99    1.92    0.00000     0.00  LINEAR    2.79076E-01   167.15    0.00000E+00     0.00
 -175.00     0.00       1.88 -999.99    1.88    0.00000     0.00  LINEAR    2.77870E-01   167.15    0.00000E+00     0.00
 -170.00     0.00       1.77 -999.99    1.77    0.00000     0.00  LINEAR    2.74270E-01   167.15    0.00000E+00     0.00
 -165.00     0.00       1.58 -999.99    1.58    0.00000     0.00  LINEAR    2.68334E-01   167.16    0.00000E+00     0.00
 -160.00     0.00       1.31 -999.99    1.31    0.00000     0.00  LINEAR    2.60154E-01   167.16    0.00000E+00     0.00
 -155.00     0.00       0.96 -999.99    0.96    0.00000     0.00  LINEAR    2.49853E-01   167.17    0.00000E+00     0.00
 -150.00     0.00       0.52 -999.99    0.52    0.00000     0.00  LINEAR    2.37581E-01   167.19    0.00000E+00     0.00
 -145.00     0.00      -0.01 -999.99   -0.01    0.00000     0.00  LINEAR    2.23506E-01   167.20    0.00000E+00     0.00
 -140.00     0.00      -0.64 -999.99   -0.64    0.00000     0.00  LINEAR    2.07808E-01   167.21    0.00000E+00     0.00
 -135.00     0.00      -1.39 -999.99   -1.39    0.00000     0.00  LINEAR    1.90676E-01   167.23    0.00000E+00     0.00
 -130.00     0.00      -2.27 -999.99   -2.27    0.00000     0.00  LINEAR    1.72297E-01   167.24    0.00000E+00     0.00
 -125.00     0.00      -3.31 -999.99   -3.31    0.00000     0.00  LINEAR    1.52854E-01   167.26    0.00000E+00     0.00
 -120.00     0.00      -4.55 -999.99   -4.55    0.00000     0.00  LINEAR    1.32520E-01   167.27    0.00000E+00     0.00
 -115.00     0.00      -6.05 -999.99   -6.05    0.00000     0.00  LINEAR    1.11458E-01   167.28    0.00000E+00     0.00
 -110.00     0.00      -7.93 -999.99   -7.93    0.00000     0.00  LINEAR    8.98172E-02   167.29    0.00000E+00     0.00
 -105.00     0.00     -10.38 -999.99  -10.38    0.00000     0.00  LINEAR    6.77326E-02   167.30    0.00000E+00     0.00
 -100.00     0.00     -13.87 -999.99  -13.87    0.00000     0.00  LINEAR    4.53274E-02   167.31    0.00000E+00     0.00
  -95.00     0.00     -19.87 -999.99  -19.87    0.00000     0.00  LINEAR    2.27146E-02   167.31    0.00000E+00     0.00
  -90.00     0.00    -999.99 -999.99 -999.99    0.00000     0.00            1.32936E-12   167.31    0.00000E+00     0.00
  -85.00     0.00     -19.87 -999.99  -19.87    0.00000     0.00  LINEAR    2.27146E-02   -12.69    0.00000E+00     0.00
  -80.00     0.00     -13.87 -999.99  -13.87    0.00000     0.00  LINEAR    4.53274E-02   -12.69    0.00000E+00     0.00
  -75.00     0.00     -10.38 -999.99  -10.38    0.00000     0.00  LINEAR    6.77326E-02   -12.70    0.00000E+00     0.00
  -70.00     0.00      -7.93 -999.99   -7.93    0.00000     0.00  LINEAR    8.98172E-02   -12.71    0.00000E+00     0.00
  -65.00     0.00      -6.05 -999.99   -6.05    0.00000     0.00  LINEAR    1.11458E-01   -12.72    0.00000E+00     0.00
  -60.00     0.00      -4.55 -999.99   -4.55    0.00000     0.00  LINEAR    1.32520E-01   -12.73    0.00000E+00     0.00
  -55.00     0.00      -3.31 -999.99   -3.31    0.00000     0.00  LINEAR    1.52854E-01   -12.74    0.00000E+00     0.00
  -50.00     0.00      -2.27 -999.99   -2.27    0.00000     0.00  LINEAR    1.72297E-01   -12.76    0.00000E+00     0.00
  -45.00     0.00      -1.39 -999.99   -1.39    0.00000     0.00  LINEAR    1.90676E-01   -12.77    0.00000E+00     0.00
  -40.00     0.00      -0.64 -999.99   -0.64    0.00000     0.00  LINEAR    2.07808E-01   -12.79    0.00000E+00     0.00
  -35.00     0.00      -0.01 -999.99   -0.01    0.00000     0.00  LINEAR    2.23506E-01   -12.80    0.00000E+00     0.00
  -30.00     0.00       0.52 -999.99    0.52    0.00000     0.00  LINEAR    2.37581E-01   -12.81    0.00000E+00     0.00
  -25.00     0.00       0.96 -999.99    0.96    0.00000     0.00  LINEAR    2.49853E-01   -12.83    0.00000E+00     0.00
  -20.00     0.00       1.31 -999.99    1.31    0.00000     0.00  LINEAR    2.60154E-01   -12.84    0.00000E+00     0.00
  -15.00     0.00       1.58 -999.99    1.58    0.00000     0.00  LINEAR    2.68334E-01   -12.84    0.00000E+00     0.00
  -10.00     0.00       1.77 -999.99    1.77    0.00000     0.00  LINEAR    2.74270E-01   -12.85    0.00000E+00     0.00
   -5.00     0.00       1.88 -999.99    1.88    0.00000     0.00  LINEAR    2.77870E-01   -12.85    0.00000E+00     0.00
    0.00     0.00       1.92 -999.99    1.92    0.00000     0.00  LINEAR    2.79076E-01   -12.85    0.00000E+00     0.00
 -180.00     5.00       1.89  -19.28    1.92    0.00000     5.00  LINEAR    2.78014E-01   167.15    2.43231E-02   167.15
 -175.00     5.00       1.85  -19.28    1.88    0.00000     5.02  LINEAR    2.76813E-01   167.15    2.43105E-02   167.15
 -170.00     5.00       1.73  -19.29    1.77    0.00000     5.08  LINEAR    2.73230E-01   167.15    2.42733E-02   167.15
 -165.00     5.00       1.54  -19.32    1.58    0.00000     5.18  LINEAR    2.67322E-01   167.16    2.42127E-02   167.16
 -160.00     5.00       1.28  -19.34    1.31    0.00000     5.32  LINEAR    2.59180E-01   167.16    2.41305E-02   167.16
 -155.00     5.00       0.93  -19.38    0.97    0.00000     5.51  LINEAR    2.48926E-01   167.17    2.40296E-02   167.17
 -150.00     5.00       0.49  -19.42    0.53    0.00000     5.77  LINEAR    2.36708E-01   167.19    2.39130E-02   167.19
 -145.00     5.00      -0.04  -19.47    0.01    0.00000     6.10  LINEAR    2.22694E-01   167.20    2.37846E-02   167.20
 -140.00     5.00      -0.67  -19.52   -0.62    0.00000     6.52  LINEAR    2.07062E-01   167.21    2.36483E-02   167.21
 -135.00     5.00      -1.42  -19.57   -1.36    0.00000     7.05  LINEAR    1.90000E-01   167.23    2.35083E-02   167.23
 -130.00     5.00      -2.30  -19.62   -2.22    0.00000     7.75  LINEAR    1.71694E-01   167.24    2.33690E-02   167.24
 -125.00     5.00      -3.34  -19.67   -3.24    0.00000     8.67  LINEAR    1.52326E-01   167.26    2.32345E-02   167.26
 -120.00     5.00      -4.58  -19.72   -4.45    0.00000     9.92  LINEAR    1.32068E-01   167.27    2.31088E-02   167.27
 -115.00     5.00      -6.08  -19.76   -5.90    0.00000    11.70  LINEAR    1.11082E-01   167.28    2.29957E-02   167.28
 -110.00     5.00      -7.96  -19.80   -7.68    0.00000    14.35  LINEAR    8.95171E-02   167.29    2.28984E-02   167.29
 -105.00     5.00     -10.41  -19.83   -9.94    0.00000    18.68  LINEAR    6.75080E-02   167.30    2.28198E-02   167.30
 -100.00     5.00     -13.90  -19.85  -12.92    0.00000    26.74  LINEAR    4.51780E-02   167.31    2.27619E-02   167.31
  -95.00     5.00     -19.90  -19.87  -16.87    0.00000    45.11  LINEAR    2.26400E-02   167.31    2.27265E-02   167.31
  -90.00     5.00    -999.99  -19.87  -19.87    0.00000    90.00  LINEAR    1.32500E-12   167.31    2.27146E-02   167.31
  -85.00     5.00     -19.90  -19.87  -16.87    0.00000   -45.11  LINEAR    2.26400E-02   -12.69    2.27265E-02   167.31
  -80.00     5.00     -13.90  -19.85  -12.92    0.00000   -26.74  LINEAR    4.51780E-02   -12.69    2.27619E-02   167.31
  -75.00     5.00     -10.41  -19.83   -9.94    0.00000   -18.68  LINEAR    6.75080E-02   -12.70    2.28198E-02   167.30
  -70.00     5.00      -7.96  -19.80   -7.68    0.00000   -14.35  LINEAR    8.95171E-02   -12.71    2.28984E-02   167.29
  -65.00     5.00      -6.08  -19.76   -5.90    0.00000   -11.70  LINEAR    1.11082E-01   -12.72    2.29957E-02   167.28
  -60.00     5.00      -4.58  -19.72   -4.45    0.00000    -9.92  LINEAR    1.32068E-01   -12.73    2.31088E-02   167.27
  -55.00     5.00      -3.34  -19.67   -3.24    0.00000    -8.67  LINEAR    1.52326E-01   -12.74    2.32345E-02   167.26
  -50.00     5.00      -2.30  -19.62   -2.22    0.00000    -7.75  LINEAR    1.71694E-01   -12.76    2.33690E-02   167.24
  -45.00     5.00      -1.42  -19.57   -1.36    0.00000    -7.05  LINEAR    1.90000E-01   -12.77    2.35083E-02   167.23
  -40.00     5.00      -0.67  -19.52   -0.62    0.00000    -6.52  LINEAR    2.07062E-01   -12.79    2.36483E-02   167.21
  -35.00     5.00      -0.04  -19.47    0.01    0.00000    -6.10  LINEAR    2.22694E-01   -12.80    2.37846E-02   167.20
  -30.00     5.00       0.49  -19.42    0.53    0.00000    -5.77  LINEAR    2.36708E-01   -12.81    2.39130E-02   167.19
  -25.00     5.00       0.93  -19.38    0.97    0.00000    -5.51  LINEAR    2.48926E-01   -12.83    2.40296E-02   167.17
  -20.00     5.00       1.28  -19.34    1.31    0.00000    -5.32  LINEAR    2.59180E-01   -12.84    2.41305E-02   167.16
  -15.00     5.00       1.54  -19.32    1.58    0.00000    -5.18  LINEAR    2.67322E-01   -12.84    2.42127E-02   167.16
  -10.00     5.00       1.73  -19.29    1.77    0.00000    -5.08  LINEAR    2.73230E-01   -12.85    2.42733E-02   167.15
   -5.00     5.00       1.85  -19.28    1.88    0.00000    -5.02  LINEAR    2.76813E-01   -12.85    2.43105E-02   167.15
    0.00     5.00       1.89  -19.28    1.92    0.00000    -5.00  LINEAR    2.78014E-01   -12.85    2.43231E-02   167.15
 -180.00    10.00       1.79  -13.29    1.92    0.00000    10.00  LINEAR    2.74836E-01   167.15    4.84610E-02   167.15
 -175.00    10.00       1.75  -13.29    1.88    0.00000    10.04  LINEAR    2.73652E-01   167.15    4.84366E-02   167.15
 -170.00    10.00       1.63  -13.31    1.77    0.00000    10.15  LINEAR    2.70120E-01   167.15    4.83642E-02   167.15
 -165.00    10.00       1.45  -13.33    1.59    0.00000    10.35  LINEAR    2.64294E-01   167.16    4.82461E-02   167.16
 -160.00    10.00       1.18  -13.36    1.33    0.00000    10.63  LINEAR    2.56264E-01   167.16    4.80861E-02   167.16
 -155.00    10.00       0.83  -13.39    0.99    0.00000    11.01  LINEAR    2.46149E-01   167.17    4.78895E-02   167.17
