


                               __________________________________________
                              |                                          |
                              |  NUMERICAL ELECTROMAGNETICS CODE (nec2c) |
                              |   Translated to 'C' in Double Precision  |
                              |__________________________________________|



                               ---------------- COMMENTS ----------------
                               Geometry bug with plotly, plots only a half circle without the fix
                              



                               -------- STRUCTURE SPECIFICATION --------
                                     COORDINATES MUST BE INPUT IN
                                     METERS OR BE SCALED TO METERS
                                     BEFORE STRUCTURE INPUT IS ENDED

  WIRE                                                                                 SEG FIRST  LAST  TAG
   No:        X1         Y1         Z1         X2         Y2         Z2       RADIUS   No:   SEG   SEG  No:
     1 ARC RADIUS:   0.15915  FROM: -180.000 TO:  180.000 DEGREES           0.00409    64     1    64    1
     2 ARC RADIUS:   0.17507  FROM: -180.000 TO:  180.000 DEGREES           0.00409    64    65   128    2
     THE STRUCTURE HAS BEEN MOVED, MOVE DATA CARD IS:
     0     0    0.00000    0.00000    0.00000    0.00000   -1.00000    0.00000    2.00000

     TOTAL SEGMENTS USED: 128   SEGMENTS IN A SYMMETRIC CELL: 128   SYMMETRY FLAG: 0


                               ---------- SEGMENTATION DATA ----------
                                        COORDINATES IN METERS
                            I+ AND I- INDICATE THE SEGMENTS BEFORE AND AFTER I

   SEG    COORDINATES OF SEGM CENTER     SEGM    ORIENTATION ANGLES    WIRE    CONNECTION DATA   TAG
   No:       X         Y         Z      LENGTH     ALPHA      BETA    RADIUS    I-     I    I+   No:
     1   -0.1588    0.0000   -0.0078    0.0156  -87.1875    0.0000    0.0041    64     1     2     1
     2   -0.1572    0.0000   -0.0233    0.0156  -81.5625    0.0000    0.0041     1     2     3     1
     3   -0.1542    0.0000   -0.0386    0.0156  -75.9375    0.0000    0.0041     2     3     4     1
     4   -0.1497    0.0000   -0.0536    0.0156  -70.3125    0.0000    0.0041     3     4     5     1
     5   -0.1437    0.0000   -0.0680    0.0156  -64.6875    0.0000    0.0041     4     5     6     1
     6   -0.1363    0.0000   -0.0817    0.0156  -59.0625    0.0000    0.0041     5     6     7     1
     7   -0.1277    0.0000   -0.0947    0.0156  -53.4375    0.0000    0.0041     6     7     8     1
     8   -0.1178    0.0000   -0.1068    0.0156  -47.8125    0.0000    0.0041     7     8     9     1
     9   -0.1068    0.0000   -0.1178    0.0156  -42.1875    0.0000    0.0041     8     9    10     1
    10   -0.0947    0.0000   -0.1277    0.0156  -36.5625    0.0000    0.0041     9    10    11     1
    11   -0.0817    0.0000   -0.1363    0.0156  -30.9375    0.0000    0.0041    10    11    12     1
    12   -0.0680    0.0000   -0.1437    0.0156  -25.3125    0.0000    0.0041    11    12    13     1
    13   -0.0536    0.0000   -0.1497    0.0156  -19.6875    0.0000    0.0041    12    13    14     1
    14   -0.0386    0.0000   -0.1542    0.0156  -14.0625    0.0000    0.0041    13    14    15     1
    15   -0.0233    0.0000   -0.1572    0.0156   -8.4375    0.0000    0.0041    14    15    16     1
    16   -0.0078    0.0000   -0.1588    0.0156   -2.8125    0.0000    0.0041    15    16    17     1
    17    0.0078    0.0000   -0.1588    0.0156    2.8125    0.0000    0.0041    16    17    18     1
    18    0.0233    0.0000   -0.1572    0.0156    8.4375    0.0000    0.0041    17    18    19     1
    19    0.0386    0.0000   -0.1542    0.0156   14.0625    0.0000    0.0041    18    19    20     1
    20    0.0536    0.0000   -0.1497    0.0156   19.6875    0.0000    0.0041    19    20    21     1
    21    0.0680    0.0000   -0.1437    0.0156   25.3125    0.0000    0.0041    20    21    22     1
    22    0.0817    0.0000   -0.1363    0.0156   30.9375    0.0000    0.0041    21    22    23     1
    23    0.0947    0.0000   -0.1277    0.0156   36.5625    0.0000    0.0041    22    23    24     1
    24    0.1068    0.0000   -0.1178    0.0156   42.1875    0.0000    0.0041    23    24    25     1
    25    0.1178    0.0000   -0.1068    0.0156   47.8125    0.0000    0.0041    24    25    26     1
    26    0.1277    0.0000   -0.0947    0.0156   53.4375    0.0000    0.0041    25    26    27     1
    27    0.1363    0.0000   -0.0817    0.0156   59.0625    0.0000    0.0041    26    27    28     1
    28    0.1437    0.0000   -0.0680    0.0156   64.6875    0.0000    0.0041    27    28    29     1
    29    0.1497    0.0000   -0.0536    0.0156   70.3125    0.0000    0.0041    28    29    30     1
    30    0.1542    0.0000   -0.0386    0.0156   75.9375    0.0000    0.0041    29    30    31     1
    31    0.1572    0.0000   -0.0233    0.0156   81.5625    0.0000    0.0041    30    31    32     1
    32    0.1588    0.0000   -0.0078    0.0156   87.1875    0.0000    0.0041    31    32    33     1
    33    0.1588    0.0000    0.0078    0.0156   87.1875  180.0000    0.0041    32    33    34     1
    34    0.1572    0.0000    0.0233    0.0156   81.5625  180.0000    0.0041    33    34    35     1
    35    0.1542    0.0000    0.0386    0.0156   75.9375  180.0000    0.0041    34    35    36     1
    36    0.1497    0.0000    0.0536    0.0156   70.3125  180.0000    0.0041    35    36    37     1
    37    0.1437    0.0000    0.0680    0.0156   64.6875  180.0000    0.0041    36    37    38     1
    38    0.1363    0.0000    0.0817    0.0156   59.0625  180.0000    0.0041    37    38    39     1
    39    0.1277    0.0000    0.0947    0.0156   53.4375  180.0000    0.0041    38    39    40     1
    40    0.1178    0.0000    0.1068    0.0156   47.8125  180.0000    0.0041    39    40    41     1
    41    0.1068    0.0000    0.1178    0.0156   42.1875  180.0000    0.0041    40    41    42     1
    42    0.0947    0.0000    0.1277    0.0156   36.5625  180.0000    0.0041    41    42    43     1
    43    0.0817    0.0000    0.1363    0.0156   30.9375  180.0000    0.0041    42    43    44     1
    44    0.0680    0.0000    0.1437    0.0156   25.3125  180.0000    0.0041    43    44    45     1
    45    0.0536    0.0000    0.1497    0.0156   19.6875  180.0000    0.0041    44    45    46     1
    46    0.0386    0.0000    0.1542    0.0156   14.0625  180.0000    0.0041    45    46    47     1
    47    0.0233    0.0000    0.1572    0.0156    8.4375  180.0000    0.0041    46    47    48     1
    48    0.0078    0.0000    0.1588    0.0156    2.8125  180.0000    0.0041    47    48    49     1
    49   -0.0078    0.0000    0.1588    0.0156   -2.8125  180.0000    0.0041    48    49    50     1
    50   -0.0233    0.0000    0.1572    0.0156   -8.4375  180.0000    0.0041    49    50    51     1
    51   -0.0386    0.0000    0.1542    0.0156  -14.0625  180.0000    0.0041    50    51    52     1
    52   -0.0536    0.0000    0.1497    0.0156  -19.6875  180.0000    0.0041    51    52    53     1
    53   -0.0680    0.0000    0.1437    0.0156  -25.3125  180.0000    0.0041    52    53    54     1
    54   -0.0817    0.0000    0.1363    0.0156  -30.9375  180.0000    0.0041    53    54    55     1
    55   -0.0947    0.0000    0.1277    0.0156  -36.5625  180.0000    0.0041    54    55    56     1
    56   -0.1068    0.0000    0.1178    0.0156  -42.1875  180.0000    0.0041    55    56    57     1
    57   -0.1178    0.0000    0.1068    0.0156  -47.8125  180.0000    0.0041    56    57    58     1
    58   -0.1277    0.0000    0.0947    0.0156  -53.4375  180.0000    0.0041    57    58    59     1
    59   -0.1363    0.0000    0.0817    0.0156  -59.0625  180.0000    0.0041    58    59    60     1
    60   -0.1437    0.0000    0.0680    0.0156  -64.6875  180.0000    0.0041    59    60    61     1
    61   -0.1497    0.0000    0.0536    0.0156  -70.3125  180.0000    0.0041    60    61    62     1
    62   -0.1542    0.0000    0.0386    0.0156  -75.9375  180.0000    0.0041    61    62    63     1
    63   -0.1572    0.0000    0.0233    0.0156  -81.5625  180.0000    0.0041    62    63    64     1
    64   -0.1588    0.0000    0.0078    0.0156  -87.1875  180.0000    0.0041    63    64     1     1
    65   -0.1746   -1.0000   -0.0086    0.0172  -87.1875    0.0000    0.0041   128    65    66     2
    66   -0.1730   -1.0000   -0.0257    0.0172  -81.5625    0.0000    0.0041    65    66    67     2
    67   -0.1696   -1.0000   -0.0425    0.0172  -75.9375    0.0000    0.0041    66    67    68     2
    68   -0.1646   -1.0000   -0.0589    0.0172  -70.3125    0.0000    0.0041    67    68    69     2
    69   -0.1581   -1.0000   -0.0748    0.0172  -64.6875    0.0000    0.0041    68    69    70     2
    70   -0.1500   -1.0000   -0.0899    0.0172  -59.0625    0.0000    0.0041    69    70    71     2
    71   -0.1404   -1.0000   -0.1042    0.0172  -53.4375    0.0000    0.0041    70    71    72     2
    72   -0.1296   -1.0000   -0.1174    0.0172  -47.8125    0.0000    0.0041    71    72    73     2
    73   -0.1174   -1.0000   -0.1296    0.0172  -42.1875    0.0000    0.0041    72    73    74     2
    74   -0.1042   -1.0000   -0.1404    0.0172  -36.5625    0.0000    0.0041    73    74    75     2
    75   -0.0899   -1.0000   -0.1500    0.0172  -30.9375    0.0000    0.0041    74    75    76     2
    76   -0.0748   -1.0000   -0.1581    0.0172  -25.3125    0.0000    0.0041    75    76    77     2
    77   -0.0589   -1.0000   -0.1646    0.0172  -19.6875    0.0000    0.0041    76    77    78     2
    78   -0.0425   -1.0000   -0.1696    0.0172  -14.0625    0.0000    0.0041    77    78    79     2
    79   -0.0257   -1.0000   -0.1730    0.0172   -8.4375    0.0000    0.0041    78    79    80     2
    80   -0.0086   -1.0000   -0.1746    0.0172   -2.8125    0.0000    0.0041    79    80    81     2
    81    0.0086   -1.0000   -0.1746    0.0172    2.8125    0.0000    0.0041    80    81    82     2
    82    0.0257   -1.0000   -0.1730    0.0172    8.4375    0.0000    0.0041    81    82    83     2
    83    0.0425   -1.0000   -0.1696    0.0172   14.0625    0.0000    0.0041    82    83    84     2
    84    0.0589   -1.0000   -0.1646    0.0172   19.6875    0.0000    0.0041    83    84    85     2
    85    0.0748   -1.0000   -0.1581    0.0172   25.3125    0.0000    0.0041    84    85    86     2
    86    0.0899   -1.0000   -0.1500    0.0172   30.9375    0.0000    0.0041    85    86    87     2
    87    0.1042   -1.0000   -0.1404    0.0172   36.5625    0.0000    0.0041    86    87    88     2
    88    0.1174   -1.0000   -0.1296    0.0172   42.1875    0.0000    0.0041    87    88    89     2
    89    0.1296   -1.0000   -0.1174    0.0172   47.8125    0.0000    0.0041    88    89    90     2
    90    0.1404   -1.0000   -0.1042    0.0172   53.4375    0.0000    0.0041    89    90    91     2
    91    0.1500   -1.0000   -0.0899    0.0172   59.0625    0.0000    0.0041    90    91    92     2
    92    0.1581   -1.0000   -0.0748    0.0172   64.6875    0.0000    0.0041    91    92    93     2
    93    0.1646   -1.0000   -0.0589    0.0172   70.3125    0.0000    0.0041    92    93    94     2
    94    0.1696   -1.0000   -0.0425    0.0172   75.9375    0.0000    0.0041    93    94    95     2
    95    0.1730   -1.0000   -0.0257    0.0172   81.5625    0.0000    0.0041    94    95    96     2
    96    0.1746   -1.0000   -0.0086    0.0172   87.1875    0.0000    0.0041    95    96    97     2
    97    0.1746   -1.0000    0.0086    0.0172   87.1875  180.0000    0.0041    96    97    98     2
    98    0.1730   -1.0000    0.0257    0.0172   81.5625  180.0000    0.0041    97    98    99     2
    99    0.1696   -1.0000    0.0425    0.0172   75.9375  180.0000    0.0041    98    99   100     2
   100    0.1646   -1.0000    0.0589    0.0172   70.3125  180.0000    0.0041    99   100   101     2
   101    0.1581   -1.0000    0.0748    0.0172   64.6875  180.0000    0.0041   100   101   102     2
   102    0.1500   -1.0000    0.0899    0.0172   59.0625  180.0000    0.0041   101   102   103     2
   103    0.1404   -1.0000    0.1042    0.0172   53.4375  180.0000    0.0041   102   103   104     2
   104    0.1296   -1.0000    0.1174    0.0172   47.8125  180.0000    0.0041   103   104   105     2
   105    0.1174   -1.0000    0.1296    0.0172   42.1875  180.0000    0.0041   104   105   106     2
   106    0.1042   -1.0000    0.1404    0.0172   36.5625  180.0000    0.0041   105   106   107     2
   107    0.0899   -1.0000    0.1500    0.0172   30.9375  180.0000    0.0041   106   107   108     2
   108    0.0748   -1.0000    0.1581    0.0172   25.3125  180.0000    0.0041   107   108   109     2
   109    0.0589   -1.0000    0.1646    0.0172   19.6875  180.0000    0.0041   108   109   110     2
   110    0.0425   -1.0000    0.1696    0.0172   14.0625  180.0000    0.0041   109   110   111     2
   111    0.0257   -1.0000    0.1730    0.0172    8.4375  180.0000    0.0041   110   111   112     2
   112    0.0086   -1.0000    0.1746    0.0172    2.8125  180.0000    0.0041   111   112   113     2
   113   -0.0086   -1.0000    0.1746    0.0172   -2.8125  180.0000    0.0041   112   113   114     2
   114   -0.0257   -1.0000    0.1730    0.0172   -8.4375  180.0000    0.0041   113   114   115     2
   115   -0.0425   -1.0000    0.1696    0.0172  -14.0625  180.0000    0.0041   114   115   116     2
   116   -0.0589   -1.0000    0.1646    0.0172  -19.6875  180.0000    0.0041   115   116   117     2
   117   -0.0748   -1.0000    0.1581    0.0172  -25.3125  180.0000    0.0041   116   117   118     2
   118   -0.0899   -1.0000    0.1500    0.0172  -30.9375  180.0000    0.0041   117   118   119     2
   119   -0.1042   -1.0000    0.1404    0.0172  -36.5625  180.0000    0.0041   118   119   120     2
   120   -0.1174   -1.0000    0.1296    0.0172  -42.1875  180.0000    0.0041   119   120   121     2
   121   -0.1296   -1.0000    0.1174    0.0172  -47.8125  180.0000    0.0041   120   121   122     2
   122   -0.1404   -1.0000    0.1042    0.0172  -53.4375  180.0000    0.0041   121   122   123     2
   123   -0.1500   -1.0000    0.0899    0.0172  -59.0625  180.0000    0.0041   122   123   124     2
   124   -0.1581   -1.0000    0.0748    0.0172  -64.6875  180.0000    0.0041   123   124   125     2
   125   -0.1646   -1.0000    0.0589    0.0172  -70.3125  180.0000    0.0041   124   125   126     2
   126   -0.1696   -1.0000    0.0425    0.0172  -75.9375  180.0000    0.0041   125   126   127     2
   127   -0.1730   -1.0000    0.0257    0.0172  -81.5625  180.0000    0.0041   126   127   128     2
   128   -0.1746   -1.0000    0.0086    0.0172  -87.1875  180.0000    0.0041   127   128    65     2



  DATA CARD No:   1 EK   1     0     0     0  0.00000E+00  0.00000E+00  0.00000E+00  0.00000E+00  0.00000E+00  0.00000E+00
  DATA CARD No:   2 EX   0     1    16     0  1.00000E+00  0.00000E+00  0.00000E+00  0.00000E+00  0.00000E+00  0.00000E+00
  DATA CARD No:   3 FR   0     1     0     0  2.98000E+02  0.00000E+00  0.00000E+00  0.00000E+00  0.00000E+00  0.00000E+00
  DATA CARD No:   4 RP   0    37    73     0  0.00000E+00  0.00000E+00  5.00000E+00  5.00000E+00  0.00000E+00  0.00000E+00


                               --------- FREQUENCY --------
                                FREQUENCY : 2.9800E+02 MHz
                                WAVELENGTH: 1.0060E+00 Mtr

                        APPROXIMATE INTEGRATION EMPLOYED FOR SEGMENTS 
                        THAT ARE MORE THAN 1.000 WAVELENGTHS APART
                        THE EXTENDED THIN WIRE KERNEL WILL BE USED


                          ------ STRUCTURE IMPEDANCE LOADING ------
                                 THIS STRUCTURE IS NOT LOADED


                            -------- ANTENNA ENVIRONMENT --------
                            FREE SPACE


                             ---------- MATRIX TIMING ----------
                               FILL: 0 msec  FACTOR: 0 msec


                        --------- ANTENNA INPUT PARAMETERS ---------
  TAG   SEG       VOLTAGE (VOLTS)         CURRENT (AMPS)         IMPEDANCE (OHMS)        ADMITTANCE (MHOS)     POWER
  No:   No:     REAL      IMAGINARY     REAL      IMAGINARY     REAL      IMAGINARY    REAL       IMAGINARY   (WATTS)
    1    16  1.0000E+00  0.0000E+00  4.4586E-03  4.3330E-03  1.1535E+02 -1.1210E+02  4.4586E-03  4.3330E-03  2.2293E-03


                           -------- CURRENTS AND LOCATION --------
                                  DISTANCES IN WAVELENGTHS

   SEG  TAG    COORDINATES OF SEGM CENTER     SEGM    ------------- CURRENT (AMPS) -------------
   No:  No:       X         Y         Z      LENGTH     REAL      IMAGINARY    MAGN        PHASE
     1    1   -0.1578    0.0000   -0.0078   0.01552  4.8718E-04 -7.9806E-04  9.3501E-04  -58.598
     2    1   -0.1563    0.0000   -0.0232   0.01552  9.1348E-04 -4.9783E-04  1.0403E-03  -28.590
     3    1   -0.1533    0.0000   -0.0384   0.01552  1.3318E-03 -1.8929E-04  1.3452E-03   -8.090
     4    1   -0.1488    0.0000   -0.0532   0.01552  1.7381E-03  1.2612E-04  1.7426E-03    4.150
     5    1   -0.1428    0.0000   -0.0676   0.01552  2.1284E-03  4.4695E-04  2.1748E-03   11.860
     6    1   -0.1355    0.0000   -0.0812   0.01552  2.4989E-03  7.7174E-04  2.6153E-03   17.162
     7    1   -0.1269    0.0000   -0.0941   0.01552  2.8460E-03  1.0991E-03  3.0509E-03   21.115
     8    1   -0.1171    0.0000   -0.1061   0.01552  3.1665E-03  1.4276E-03  3.4734E-03   24.269
     9    1   -0.1061    0.0000   -0.1171   0.01552  3.4570E-03  1.7562E-03  3.8775E-03   26.932
    10    1   -0.0941    0.0000   -0.1269   0.01552  3.7148E-03  2.0841E-03  4.2595E-03   29.294
    11    1   -0.0812    0.0000   -0.1355   0.01552  3.9374E-03  2.4110E-03  4.6169E-03   31.481
    12    1   -0.0676    0.0000   -0.1428   0.01552  4.1226E-03  2.7378E-03  4.9488E-03   33.588
    13    1   -0.0532    0.0000   -0.1488   0.01552  4.2685E-03  3.0676E-03  5.2565E-03   35.704
    14    1   -0.0384    0.0000   -0.1533   0.01552  4.3738E-03  3.4077E-03  5.5446E-03   37.923
    15    1   -0.0232    0.0000   -0.1563   0.01552  4.4374E-03  3.8055E-03  5.8457E-03   40.617
    16    1   -0.0078    0.0000   -0.1578   0.01552  4.4586E-03  4.3330E-03  6.2172E-03   44.181
    17    1    0.0078    0.0000   -0.1578   0.01552  4.4374E-03  3.8055E-03  5.8457E-03   40.617
    18    1    0.0232    0.0000   -0.1563   0.01552  4.3738E-03  3.4077E-03  5.5446E-03   37.923
    19    1    0.0384    0.0000   -0.1533   0.01552  4.2685E-03  3.0676E-03  5.2565E-03   35.704
    20    1    0.0532    0.0000   -0.1488   0.01552  4.1226E-03  2.7378E-03  4.9488E-03   33.588
    21    1    0.0676    0.0000   -0.1428   0.01552  3.9374E-03  2.4110E-03  4.6169E-03   31.481
    22    1    0.0812    0.0000   -0.1355   0.01552  3.7148E-03  2.0841E-03  4.2595E-03   29.294
    23    1    0.0941    0.0000   -0.1269   0.01552  3.4570E-03  1.7562E-03  3.8775E-03   26.932
    24    1    0.1061    0.0000   -0.1171   0.01552  3.1665E-03  1.4276E-03  3.4734E-03   24.269
    25    1    0.1171    0.0000   -0.1061   0.01552  2.8460E-03  1.0991E-03  3.0509E-03   21.115
    26    1    0.1269    0.0000   -0.0941   0.01552  2.4989E-03  7.7174E-04  2.6153E-03   17.162
    27    1    0.1355    0.0000   -0.0812   0.01552  2.1284E-03  4.4695E-04  2.1748E-03   11.860
    28    1    0.1428    0.0000   -0.0676   0.01552  1.7381E-03  1.2612E-04  1.7426E-03    4.150
    29    1    0.1488    0.0000   -0.0532   0.01552  1.3318E-03 -1.8929E-04  1.3452E-03   -8.090
    30    1    0.1533    0.0000   -0.0384   0.01552  9.1348E-04 -4.9783E-04  1.0403E-03  -28.590
    31    1    0.1563    0.0000   -0.0232   0.01552  4.8718E-04 -7.9806E-04  9.3501E-04  -58.598
    32    1    0.1578    0.0000   -0.0078   0.01552  5.6993E-05 -1.0886E-03  1.0901E-03  -87.003
