


                               __________________________________________
                              |                                          |
                              |  NUMERICAL ELECTROMAGNETICS CODE (nec2c) |
                              |   Translated to 'C' in Double Precision  |
                              |__________________________________________|



                               ---------------- COMMENTS ----------------
                              



                               -------- STRUCTURE SPECIFICATION --------
                                     COORDINATES MUST BE INPUT IN
                                     METERS OR BE SCALED TO METERS
                                     BEFORE STRUCTURE INPUT IS ENDED

  WIRE                                                                                 SEG FIRST  LAST  TAG
   No:        X1         Y1         Z1         X2         Y2         Z2       RADIUS   No:   SEG   SEG  No:
     1     0.00000    0.00000    0.00000    0.00000    0.00000    1.00000    0.00100     2     1     2    1
     2     0.00000    0.00000    0.00000    0.00000    1.00000    0.00000    0.00100     2     3     4    2
     3     0.00000    0.00000    1.00000    0.00000    1.00000    0.00000    0.00100     2     5     6    3

     TOTAL SEGMENTS USED: 6   SEGMENTS IN A SYMMETRIC CELL: 6   SYMMETRY FLAG: 0


                               ---------- SEGMENTATION DATA ----------
                                        COORDINATES IN METERS
                            I+ AND I- INDICATE THE SEGMENTS BEFORE AND AFTER I

   SEG    COORDINATES OF SEGM CENTER     SEGM    ORIENTATION ANGLES    WIRE    CONNECTION DATA   TAG
   No:       X         Y         Z      LENGTH     ALPHA      BETA    RADIUS    I-     I    I+   No:
     1    0.0000    0.0000    0.2500    0.5000   90.0000    0.0000    0.0010    -3     1     2     1
     2    0.0000    0.0000    0.7500    0.5000   90.0000    0.0000    0.0010     1     2     5     1
     3    0.0000    0.2500    0.0000    0.5000    0.0000   90.0000    0.0010    -1     3     4     2
     4    0.0000    0.7500    0.0000    0.5000    0.0000   90.0000    0.0010     3     4    -6     2
     5    0.0000    0.2500    0.7500    0.7071  -45.0000   90.0000    0.0010     2     5     6     3
     6    0.0000    0.7500    0.2500    0.7071  -45.0000   90.0000    0.0010     5     6    -4     3



  DATA CARD No:   1 FR   0     1     0     0  7.00000E+02  5.00000E+01  0.00000E+00  0.00000E+00  0.00000E+00  0.00000E+00
  DATA CARD No:   2 EX   0     1     1     0  1.00000E+00  0.00000E+00  0.00000E+00  0.00000E+00  0.00000E+00  0.00000E+00
  DATA CARD No:   3 RP   0     1     1     0  0.00000E+00  0.00000E+00  2.00000E+01  2.00000E+01  0.00000E+00  0.00000E+00


                               --------- FREQUENCY --------
                                FREQUENCY : 7.0000E+02 MHz
                                WAVELENGTH: 4.2829E-01 Mtr

                        APPROXIMATE INTEGRATION EMPLOYED FOR SEGMENTS 
                        THAT ARE MORE THAN 1.000 WAVELENGTHS APART


                          ------ STRUCTURE IMPEDANCE LOADING ------
                                 THIS STRUCTURE IS NOT LOADED


                            -------- ANTENNA ENVIRONMENT --------
                            FREE SPACE


                             ---------- MATRIX TIMING ----------
                               FILL: 0 msec  FACTOR: 0 msec


                        --------- ANTENNA INPUT PARAMETERS ---------
  TAG   SEG       VOLTAGE (VOLTS)         CURRENT (AMPS)         IMPEDANCE (OHMS)        ADMITTANCE (MHOS)     POWER
  No:   No:     REAL      IMAGINARY     REAL      IMAGINARY     REAL      IMAGINARY    REAL       IMAGINARY   (WATTS)
    1     1  1.0000E+00  0.0000E+00  2.0369E-03 -1.6947E-03  2.9012E+02  2.4138E+02  2.0369E-03 -1.6947E-03  1.0184E-03


                           -------- CURRENTS AND LOCATION --------
                                  DISTANCES IN WAVELENGTHS

   SEG  TAG    COORDINATES OF SEGM CENTER     SEGM    ------------- CURRENT (AMPS) -------------
   No:  No:       X         Y         Z      LENGTH     REAL      IMAGINARY    MAGN        PHASE
     1    1    0.0000    0.0000    0.5837   1.16744  2.0369E-03 -1.6947E-03  2.6497E-03  -39.761
     2    1    0.0000    0.0000    1.7512   1.16744  6.2119E-04 -1.4427E-04  6.3772E-04  -13.075
     3    2    0.0000    0.5837    0.0000   1.16744 -1.0002E-03  6.3325E-04  1.1838E-03  147.661
     4    2    0.0000    1.7512    0.0000   1.16744  7.2551E-04 -1.3516E-04  7.3799E-04  -10.553
     5    3    0.0000    0.5837    1.7512   1.65102 -1.3139E-03  7.5344E-04  1.5146E-03  150.169
     6    3    0.0000    1.7512    0.5837   1.65102 -7.1867E-05  4.0790E-04  4.1418E-04   99.992


                               ---------- POWER BUDGET ---------
                               INPUT POWER   =  1.0184E-03 Watts
                               RADIATED POWER=  1.0184E-03 Watts
                               STRUCTURE LOSS=  0.0000E+00 Watts
                               NETWORK LOSS  =  0.0000E+00 Watts
                               EFFICIENCY    =  100.00 Percent


                             ---------- RADIATION PATTERNS -----------

 ---- ANGLES -----     ----- POWER GAINS -----       ---- POLARIZATION ----   ---- E(THETA) ----    ----- E(PHI) ------
  THETA      PHI       MAJOR    MINOR    TOTAL       AXIAL      TILT  SENSE   MAGNITUDE    PHASE    MAGNITUDE     PHASE
 DEGREES   DEGREES        DB       DB       DB       RATIO   DEGREES            VOLTS/M   DEGREES     VOLTS/M   DEGREES
    0.00      0.00    -18.58  -999.99   -18.58      0.0000     90.00 LINEAR  0.0000E+00      0.00  2.9086E-02     87.30



  DATA CARD No:   4 EN   0     0     0     0  0.00000E+00  0.00000E+00  0.00000E+00  0.00000E+00  0.00000E+00  0.00000E+00

  TOTAL RUN TIME: 0 msec